Time Stamp,ID,Extended,Dir,Bus,LEN,D1,D2,D3,D4,D5,D6,D7,D8
508000,0000060D,false,Rx,0,8,0D,10,82,B6,09,20,70,00,
518000,00000054,false,Rx,0,8,00,00,FE,FF,FE,FF,00,00,
518000,00000055,false,Rx,0,8,10,27,00,00,00,00,00,00,
518000,00000056,false,Rx,0,8,10,27,00,00,00,00,00,00,
519000,00000057,false,Rx,0,8,00,00,FE,FF,FE,FF,00,00,
537000,00000625,false,Rx,0,8,25,00,58,86,01,54,5C,06,
0,000002C4,false,Rx,0,8,02,00,00,00,60,02,00,00,
0,000002C5,false,Rx,0,8,00,00,00,00,00,00,00,00,
548000,000002C6,false,Rx,0,8,32,00,7C,01,00,00,00,00,
588000,00000065,false,Rx,0,8,7D,02,01,00,00,00,00,00,
608000,0000060D,false,Rx,0,8,0D,10,82,B6,09,20,70,00,
636000,00000625,false,Rx,0,8,25,00,58,86,01,54,5C,06,
708000,0000060D,false,Rx,0,8,0D,10,82,B6,09,20,70,00,
0,00000054,false,Rx,0,8,00,00,FE,FF,7D,02,00,00,
0,00000055,false,Rx,0,8,10,27,00,00,00,00,00,00,
719000,00000056,false,Rx,0,8,10,27,00,00,00,00,00,00,
719000,00000057,false,Rx,0,8,00,00,FE,FF,FE,FF,00,00,
736000,00000625,false,Rx,0,8,25,00,59,86,01,54,5C,06,
738000,00000065,false,Rx,0,8,7D,02,01,00,00,00,00,00,
767000,000002C4,false,Rx,0,8,02,00,00,00,61,02,00,00,
767000,000002C5,false,Rx,0,8,00,00,00,00,00,00,00,00,
767000,000002C6,false,Rx,0,8,32,00,7C,01,00,00,00,00,
809000,0000060D,false,Rx,0,8,0D,10,82,B6,09,20,70,00,
837000,00000625,false,Rx,0,8,25,00,59,86,01,54,5C,06,
888000,00000065,false,Rx,0,8,7D,02,01,00,00,00,00,00,
908000,0000060D,false,Rx,0,8,0D,10,82,B6,09,20,70,00,
917000,00000054,false,Rx,0,8,00,00,FE,FF,7D,02,00,00,
918000,00000055,false,Rx,0,8,10,27,00,00,00,00,00,00,
918000,00000056,false,Rx,0,8,10,27,00,00,00,00,00,00,
918000,00000057,false,Rx,0,8,00,00,FE,FF,FE,FF,00,00,
937000,00000625,false,Rx,0,8,25,00,59,86,01,54,5C,06,
0,000002C4,false,Rx,0,8,02,00,00,00,61,02,00,00,
0,000002C5,false,Rx,0,8,00,00,00,00,00,00,00,00,
0,000002C6,false,Rx,0,8,32,00,7C,01,00,00,00,00,
8000,0000060D,false,Rx,0,8,0D,10,82,B6,09,20,70,00,
36000,00000625,false,Rx,0,8,25,00,59,86,01,54,5C,06,
38000,00000065,false,Rx,0,8,7D,02,01,00,00,00,00,00,
108000,0000060D,false,Rx,0,8,0D,10,82,B6,09,20,70,00,
118000,00000054,false,Rx,0,8,00,00,FE,FF,7D,02,00,00,
118000,00000055,false,Rx,0,8,10,27,00,00,00,00,00,00,
119000,00000056,false,Rx,0,8,10,27,00,00,00,00,00,00,
119000,00000057,false,Rx,0,8,00,00,FE,FF,FE,FF,00,00,
137000,00000625,false,Rx,0,8,25,00,59,86,01,54,5C,06,
0,000002C4,false,Rx,0,8,02,00,00,00,61,02,00,00,
0,000002C5,false,Rx,0,8,00,00,00,00,00,00,00,00,
0,000002C6,false,Rx,0,8,32,00,7C,01,00,00,00,00,
210000,0000060D,false,Rx,0,8,0D,10,82,B6,09,20,70,00,
237000,00000625,false,Rx,0,8,25,00,59,86,01,54,5C,06,
307000,0000060D,false,Rx,0,8,0D,10,82,B6,09,20,70,00,
318000,00000054,false,Rx,0,8,00,00,FE,FF,7D,02,00,00,
318000,00000055,false,Rx,0,8,10,27,00,00,00,00,00,00,
318000,00000056,false,Rx,0,8,10,27,00,00,00,00,00,00,
318000,00000057,false,Rx,0,8,00,00,FE,FF,FE,FF,00,00,
336000,00000625,false,Rx,0,8,25,00,59,86,01,54,5C,06,
408000,0000060D,false,Rx,0,8,0D,10,82,B6,09,20,70,00,
428000,000002C4,false,Rx,0,8,03,00,00,00,61,02,00,00,
428000,000002C5,false,Rx,0,8,00,00,00,00,00,00,00,00,
428000,000002C6,false,Rx,0,8,32,00,7C,01,00,00,00,00,
436000,00000625,false,Rx,0,8,25,00,59,86,01,54,5C,06,
508000,0000060D,false,Rx,0,8,0D,10,82,B6,09,20,70,00,
518000,00000054,false,Rx,0,8,00,00,FE,FF,7D,02,00,00,
518000,00000055,false,Rx,0,8,10,27,00,00,00,00,00,00,
0,00000056,false,Rx,0,8,10,27,00,00,00,00,00,00,
0,00000057,false,Rx,0,8,00,00,FE,FF,FE,FF,00,00,
536000,00000625,false,Rx,0,8,25,00,59,86,01,54,5C,06,
608000,0000060D,false,Rx,0,8,0D,10,82,B6,09,20,70,00,
636000,00000625,false,Rx,0,8,25,00,59,86,01,54,5C,06,
647000,000002C4,false,Rx,0,8,03,00,00,00,62,02,00,00,
647000,000002C5,false,Rx,0,8,00,00,00,00,00,00,00,00,
647000,000002C6,false,Rx,0,8,32,00,7C,01,00,00,00,00,
708000,0000060D,false,Rx,0,8,0D,10,82,B6,09,20,70,00,
718000,00000054,false,Rx,0,8,00,00,FE,FF,7D,02,00,00,
718000,00000055,false,Rx,0,8,10,27,00,00,00,00,00,00,
718000,00000056,false,Rx,0,8,10,27,00,00,00,00,00,00,
718000,00000057,false,Rx,0,8,00,00,FE,FF,FE,FF,00,00,
736000,00000625,false,Rx,0,8,25,00,59,86,01,54,5C,06,
808000,0000060D,false,Rx,0,8,0D,10,82,B6,09,20,70,00,
836000,00000625,false,Rx,0,8,25,00,59,86,01,54,5C,06,
0,000002C4,false,Rx,0,8,03,00,00,00,62,02,00,00,
0,000002C5,false,Rx,0,8,00,00,00,00,00,00,00,00,
868000,000002C6,false,Rx,0,8,32,00,7C,01,00,00,00,00,
908000,0000060D,false,Rx,0,8,0D,10,82,B6,09,20,70,00,
0,00000054,false,Rx,0,8,00,00,FE,FF,7D,02,00,00,
0,00000055,false,Rx,0,8,10,27,00,00,00,00,00,00,
0,00000056,false,Rx,0,8,10,27,00,00,00,00,00,00,
918000,00000057,false,Rx,0,8,00,00,FE,FF,FE,FF,00,00,
937000,00000625,false,Rx,0,8,25,00,59,86,01,54,5C,06,
8000,0000060D,false,Rx,0,8,0D,10,82,B6,09,20,70,00,
36000,00000625,false,Rx,0,8,25,00,59,86,01,54,5C,06,
0,000002C4,false,Rx,0,8,03,00,00,00,62,02,00,00,
0,000002C5,false,Rx,0,8,00,00,00,00,00,00,00,00,
88000,000002C6,false,Rx,0,8,32,00,7C,01,00,00,00,00,
108000,0000060D,false,Rx,0,8,0D,10,82,B6,09,20,70,00,
118000,00000054,false,Rx,0,8,00,00,FE,FF,7D,02,00,00,
118000,00000055,false,Rx,0,8,10,27,00,00,00,00,00,00,
118000,00000056,false,Rx,0,8,10,27,00,00,00,00,00,00,
119000,00000057,false,Rx,0,8,00,00,FE,FF,FE,FF,00,00,
136000,00000625,false,Rx,0,8,25,00,59,86,01,54,5C,06,
208000,0000060D,false,Rx,0,8,0D,10,82,B6,09,20,70,00,
236000,00000625,false,Rx,0,8,25,00,59,86,01,54,5C,06,
307000,000002C4,false,Rx,0,8,03,00,00,00,62,02,00,00,
307000,000002C5,false,Rx,0,8,00,00,00,00,00,00,00,00,
308000,000002C6,false,Rx,0,8,32,00,7C,01,00,00,00,00,
308000,0000060D,false,Rx,0,8,0D,10,82,B6,09,20,70,00,
318000,00000054,false,Rx,0,8,00,00,FE,FF,7D,02,00,00,
0,00000055,false,Rx,0,8,10,27,00,00,00,00,00,00,
0,00000056,false,Rx,0,8,10,27,00,00,00,00,00,00,
319000,00000057,false,Rx,0,8,00,00,FE,FF,FE,FF,00,00,
336000,00000625,false,Rx,0,8,25,00,59,86,01,54,5C,06,
408000,0000060D,false,Rx,0,8,0D,10,82,B6,09,20,70,00,
437000,00000625,false,Rx,0,8,25,00,59,86,01,54,5C,06,
468000,0000005C,false,Rx,0,8,1E,00,1E,00,00,00,00,00,
0,00000062,false,Rx,0,8,12,00,00,00,00,00,00,F1,
0,00000063,false,Rx,0,8,32,01,01,00,00,00,00,00,
469000,00000064,false,Rx,0,8,3C,00,05,00,C8,00,FF,03,
470000,00000066,false,Rx,0,8,00,00,00,00,00,00,00,00,
470000,0000006D,false,Rx,0,8,12,00,00,00,00,00,00,F0,
470000,0000010A,false,Rx,0,6,10,00,01,20,10,01,00,00,
0,0000005D,false,Rx,0,8,00,00,00,00,00,00,FE,FF,
0,0000005E,false,Rx,0,8,00,00,00,00,00,00,00,00,
480000,0000005F,false,Rx,0,8,1E,00,1E,00,00,00,00,00,
480000,00000060,false,Rx,0,8,00,00,00,00,00,00,FE,FF,
480000,00000061,false,Rx,0,8,00,00,00,00,00,00,00,00,
0,00000067,false,Rx,0,8,BE,3E,27,00,01,1E,00,00,
0,00000068,false,Rx,0,8,BE,3E,27,00,01,1E,00,00,
481000,00000069,false,Rx,0,8,BE,3E,27,00,01,1E,00,00,
481000,0000006A,false,Rx,0,8,BE,3E,27,00,01,1E,00,00,
482000,0000006B,false,Rx,0,8,BE,3E,27,00,01,1E,00,00,
482000,0000006C,false,Rx,0,8,BE,3E,27,00,01,1E,00,00,
508000,0000060D,false,Rx,0,8,0D,10,82,B6,09,20,70,00,
518000,00000054,false,Rx,0,8,00,00,FE,FF,7D,02,00,00,
518000,00000055,false,Rx,0,8,10,27,00,00,00,00,00,00,
0,00000056,false,Rx,0,8,10,27,00,00,00,00,00,00,
0,00000057,false,Rx,0,8,00,00,FE,FF,FE,FF,00,00,
527000,000002C4,false,Rx,0,8,03,00,00,00,62,02,00,00,
527000,000002C5,false,Rx,0,8,00,00,00,00,00,00,00,00,
528000,000002C6,false,Rx,0,8,32,00,7C,01,00,00,00,00,
536000,00000625,false,Rx,0,8,25,00,59,86,01,54,5C,06,
608000,0000060D,false,Rx,0,8,0D,10,82,B6,09,20,70,00,
618000,0000005C,false,Rx,0,8,1E,00,1E,00,00,00,00,00,
618000,00000062,false,Rx,0,8,12,00,00,00,00,00,00,F1,
618000,00000063,false,Rx,0,8,32,01,01,00,00,00,00,00,
618000,00000064,false,Rx,0,8,3C,00,05,00,C8,00,FF,03,
619000,00000066,false,Rx,0,8,00,00,00,00,00,00,00,00,
619000,0000006D,false,Rx,0,8,12,00,00,00,00,00,00,F0,
619000,0000010A,false,Rx,0,6,10,00,01,20,10,01,00,00,
0,0000005D,false,Rx,0,8,00,00,00,00,00,00,FE,FF,
0,0000005E,false,Rx,0,8,00,00,00,00,00,00,00,00,
628000,0000005F,false,Rx,0,8,1E,00,1E,00,00,00,00,00,
628000,00000060,false,Rx,0,8,00,00,00,00,00,00,FE,FF,
628000,00000061,false,Rx,0,8,00,00,00,00,00,00,00,00,
629000,00000067,false,Rx,0,8,BE,3E,27,00,01,1E,00,00,
629000,00000068,false,Rx,0,8,BE,3E,27,00,01,1E,00,00,
629000,00000069,false,Rx,0,8,BE,3E,27,00,01,1E,00,00,
629000,0000006A,false,Rx,0,8,BE,3E,27,00,01,1E,00,00,
630000,0000006B,false,Rx,0,8,BE,3E,27,00,01,1E,00,00,
630000,0000006C,false,Rx,0,8,BE,3E,27,00,01,1E,00,00,
636000,00000625,false,Rx,0,8,25,00,59,86,01,54,5C,06,
708000,0000060D,false,Rx,0,8,0D,10,82,B6,09,20,70,00,
717000,00000054,false,Rx,0,8,00,00,FE,FF,7D,02,00,00,
717000,00000055,false,Rx,0,8,10,27,00,00,00,00,00,00,
719000,00000056,false,Rx,0,8,10,27,00,00,00,00,00,00,
719000,00000057,false,Rx,0,8,00,00,FE,FF,FE,FF,00,00,
736000,00000625,false,Rx,0,8,25,00,59,86,01,54,5C,06,
747000,000002C4,false,Rx,0,8,03,00,00,00,62,02,00,00,
747000,000002C5,false,Rx,0,8,00,00,00,00,00,00,00,00,
748000,000002C6,false,Rx,0,8,32,00,7C,01,00,00,00,00,
767000,0000005C,false,Rx,0,8,1E,00,1E,00,00,00,00,00,
768000,00000062,false,Rx,0,8,12,00,00,00,00,00,00,F1,
768000,00000063,false,Rx,0,8,32,01,01,00,00,00,00,00,
768000,00000064,false,Rx,0,8,3C,00,05,00,C8,00,FF,03,
768000,00000066,false,Rx,0,8,00,00,00,00,00,00,00,00,
769000,0000006D,false,Rx,0,8,12,00,00,00,00,00,00,F0,
769000,0000010A,false,Rx,0,6,10,00,01,20,10,01,00,00,
778000,0000005D,false,Rx,0,8,00,00,00,00,00,00,FE,FF,
778000,0000005E,false,Rx,0,8,00,00,00,00,00,00,00,00,
778000,0000005F,false,Rx,0,8,1E,00,1E,00,00,00,00,00,
778000,00000060,false,Rx,0,8,00,00,00,00,00,00,FE,FF,
779000,00000061,false,Rx,0,8,00,00,00,00,00,00,00,00,
779000,00000067,false,Rx,0,8,BE,3E,27,00,01,1E,00,00,
779000,00000068,false,Rx,0,8,BE,3E,27,00,01,1E,00,00,
780000,00000069,false,Rx,0,8,BE,3E,27,00,01,1E,00,00,
780000,0000006A,false,Rx,0,8,BE,3E,27,00,01,1E,00,00,
780000,0000006B,false,Rx,0,8,BE,3E,27,00,01,1E,00,00,
781000,0000006C,false,Rx,0,8,BE,3E,27,00,01,1E,00,00,
808000,0000060D,false,Rx,0,8,0D,10,82,B6,09,20,70,00,
836000,00000625,false,Rx,0,8,25,00,59,86,01,54,5C,06,
908000,0000060D,false,Rx,0,8,0D,10,82,B6,09,20,70,00,
917000,00000054,false,Rx,0,8,00,00,FE,FF,7D,02,00,00,
0,00000055,false,Rx,0,8,10,27,00,00,00,00,00,00,
0,00000056,false,Rx,0,8,10,27,00,00,00,00,00,00,
918000,00000057,false,Rx,0,8,00,00,FE,FF,FE,FF,00,00,
918000,0000005C,false,Rx,0,8,1E,00,1E,00,00,00,00,00,
918000,00000062,false,Rx,0,8,12,00,00,00,00,00,00,F1,
919000,00000063,false,Rx,0,8,32,01,01,00,00,00,00,00,
919000,00000064,false,Rx,0,8,3C,00,05,00,C8,00,FF,03,
919000,00000066,false,Rx,0,8,00,00,00,00,00,00,00,00,
920000,0000006D,false,Rx,0,8,12,00,00,00,00,00,00,F0,
920000,0000010A,false,Rx,0,6,10,00,01,20,10,01,00,00,
928000,0000005D,false,Rx,0,8,00,00,00,00,00,00,FE,FF,
928000,0000005E,false,Rx,0,8,00,00,00,00,00,00,00,00,
928000,0000005F,false,Rx,0,8,1E,00,1E,00,00,00,00,00,
929000,00000060,false,Rx,0,8,00,00,00,00,00,00,FE,FF,
929000,00000061,false,Rx,0,8,00,00,00,00,00,00,00,00,
929000,00000067,false,Rx,0,8,BE,3E,27,00,01,1E,00,00,
930000,00000068,false,Rx,0,8,BE,3E,27,00,01,1E,00,00,
930000,00000069,false,Rx,0,8,BE,3E,27,00,01,1E,00,00,
0,0000006A,false,Rx,0,8,BE,3E,27,00,01,1E,00,00,
0,0000006B,false,Rx,0,8,BE,3E,27,00,01,1E,00,00,
931000,0000006C,false,Rx,0,8,BE,3E,27,00,01,1E,00,00,
936000,00000625,false,Rx,0,8,25,00,59,86,01,54,5C,06,
967000,000002C4,false,Rx,0,8,03,00,00,00,63,02,00,00,
967000,000002C5,false,Rx,0,8,00,00,00,00,00,00,00,00,
968000,000002C6,false,Rx,0,8,32,00,7C,01,00,00,00,00,
8000,0000060D,false,Rx,0,8,0D,10,82,B6,09,20,70,00,
36000,00000625,false,Rx,0,8,25,00,59,86,01,54,5C,06,
108000,0000060D,false,Rx,0,8,0D,10,82,B6,09,20,70,00,
118000,00000054,false,Rx,0,8,00,00,FE,FF,7D,02,00,00,
118000,00000055,false,Rx,0,8,10,27,00,00,00,00,00,00,
118000,00000056,false,Rx,0,8,10,27,00,00,00,00,00,00,
119000,00000057,false,Rx,0,8,00,00,FE,FF,FE,FF,00,00,
136000,00000625,false,Rx,0,8,25,00,59,86,01,54,5C,06,
0,000002C4,false,Rx,0,8,03,00,00,00,63,02,00,00,
0,000002C5,false,Rx,0,8,00,00,00,00,00,00,00,00,
188000,000002C6,false,Rx,0,8,32,00,7C,01,00,00,00,00,
208000,0000060D,false,Rx,0,8,0D,10,82,B6,09,20,70,00,
236000,00000625,false,Rx,0,8,25,00,59,86,01,54,5C,06,
308000,0000060D,false,Rx,0,8,0D,10,82,B6,09,20,70,00,
318000,00000054,false,Rx,0,8,00,00,FE,FF,7D,02,00,00,
318000,00000055,false,Rx,0,8,10,27,00,00,00,00,00,00,
318000,00000056,false,Rx,0,8,10,27,00,00,00,00,00,00,
318000,00000057,false,Rx,0,8,00,00,FE,FF,FE,FF,00,00,
336000,00000625,false,Rx,0,8,25,00,59,86,01,54,5C,06,
0,000002C4,false,Rx,0,8,03,00,00,00,63,02,00,00,
0,000002C5,false,Rx,0,8,00,00,00,00,00,00,00,00,
408000,000002C6,false,Rx,0,8,32,00,7C,01,00,00,00,00,
409000,0000060D,false,Rx,0,8,0D,10,82,B6,09,20,70,00,
436000,00000625,false,Rx,0,8,25,00,59,86,01,54,5C,06,
508000,0000060D,false,Rx,0,8,0D,10,82,B6,09,20,70,00,
517000,00000054,false,Rx,0,8,00,00,FE,FF,7D,02,00,00,
517000,00000055,false,Rx,0,8,10,27,00,00,00,00,00,00,
517000,00000056,false,Rx,0,8,10,27,00,00,00,00,00,00,
519000,00000057,false,Rx,0,8,00,00,FE,FF,FE,FF,00,00,
536000,00000625,false,Rx,0,8,25,00,59,86,01,54,5C,06,
607000,0000060D,false,Rx,0,8,0D,10,82,B6,09,20,70,00,
627000,000002C4,false,Rx,0,8,03,00,00,00,63,02,00,00,
627000,000002C5,false,Rx,0,8,00,00,00,00,00,00,00,00,
627000,000002C6,false,Rx,0,8,32,00,7C,01,00,00,00,00,
636000,00000625,false,Rx,0,8,25,00,59,86,01,54,5C,06,
708000,0000060D,false,Rx,0,8,0D,10,82,B6,09,20,70,00,
717000,00000054,false,Rx,0,8,00,00,FE,FF,7D,02,00,00,
717000,00000055,false,Rx,0,8,10,27,00,00,00,00,00,00,
718000,00000056,false,Rx,0,8,10,27,00,00,00,00,00,00,
718000,00000057,false,Rx,0,8,00,00,FE,FF,FE,FF,00,00,
737000,00000625,false,Rx,0,8,25,00,59,86,01,54,5C,06,
808000,0000060D,false,Rx,0,8,0D,10,82,B6,09,20,70,00,
836000,00000625,false,Rx,0,8,25,00,59,86,01,54,5C,06,
847000,000002C4,false,Rx,0,8,03,00,00,00,63,02,00,00,
848000,000002C5,false,Rx,0,8,00,00,00,00,00,00,00,00,
848000,000002C6,false,Rx,0,8,32,00,7C,01,00,00,00,00,
908000,0000060D,false,Rx,0,8,0D,10,82,B6,09,20,70,00,
918000,00000054,false,Rx,0,8,00,00,FE,FF,7D,02,00,00,
918000,00000055,false,Rx,0,8,10,27,00,00,00,00,00,00,
918000,00000056,false,Rx,0,8,10,27,00,00,00,00,00,00,
918000,00000057,false,Rx,0,8,00,00,FE,FF,FE,FF,00,00,
936000,00000625,false,Rx,0,8,25,00,59,86,01,54,5C,06,
8000,0000060D,false,Rx,0,8,0D,10,82,B6,09,20,70,00,
36000,00000625,false,Rx,0,8,25,00,59,86,01,54,5C,06,
68000,000002C4,false,Rx,0,8,03,00,00,00,63,02,00,00,
68000,000002C5,false,Rx,0,8,00,00,00,00,00,00,00,00,
68000,000002C6,false,Rx,0,8,32,00,7C,01,00,00,00,00,
108000,0000060D,false,Rx,0,8,0D,10,82,B6,09,20,70,00,
0,00000054,false,Rx,0,8,00,00,FE,FF,7D,02,00,00,
0,00000055,false,Rx,0,8,10,27,00,00,00,00,00,00,
118000,00000056,false,Rx,0,8,10,27,00,00,00,00,00,00,
118000,00000057,false,Rx,0,8,00,00,FE,FF,FE,FF,00,00,
137000,00000625,false,Rx,0,8,25,00,59,86,01,54,5C,06,
208000,0000060D,false,Rx,0,8,0D,10,82,B6,09,20,70,00,
236000,00000625,false,Rx,0,8,25,00,59,86,01,54,5C,06,
287000,000002C4,false,Rx,0,8,03,00,00,00,63,02,00,00,
287000,000002C5,false,Rx,0,8,00,00,00,00,00,00,00,00,
287000,000002C6,false,Rx,0,8,32,00,7C,01,00,00,00,00,
308000,0000060D,false,Rx,0,8,0D,10,82,B6,09,20,70,00,
317000,00000054,false,Rx,0,8,00,00,FE,FF,7D,02,00,00,
318000,00000055,false,Rx,0,8,10,27,00,00,00,00,00,00,
318000,00000056,false,Rx,0,8,10,27,00,00,00,00,00,00,
318000,00000057,false,Rx,0,8,00,00,FE,FF,FE,FF,00,00,
336000,00000625,false,Rx,0,8,25,00,59,86,01,54,5C,06,
408000,0000060D,false,Rx,0,8,0D,10,82,B6,09,20,70,00,
436000,00000625,false,Rx,0,8,25,00,59,86,01,54,5C,06,
508000,000002C4,false,Rx,0,8,03,00,00,00,63,02,00,00,
508000,000002C5,false,Rx,0,8,00,00,00,00,00,00,00,00,
509000,000002C6,false,Rx,0,8,32,00,7C,01,00,00,00,00,
509000,0000060D,false,Rx,0,8,0D,10,82,B6,09,20,70,00,
518000,00000054,false,Rx,0,8,00,00,FE,FF,7D,02,00,00,
518000,00000055,false,Rx,0,8,10,27,00,00,00,00,00,00,
518000,00000056,false,Rx,0,8,10,27,00,00,00,00,00,00,
519000,00000057,false,Rx,0,8,00,00,FE,FF,FE,FF,00,00,
519000,0000060D,false,Rx,0,8,0D,11,82,B6,09,20,70,00,
618000,0000060D,false,Rx,0,8,0D,11,82,B6,09,20,70,00,
661000,00000625,false,Rx,0,8,25,00,59,86,01,54,5C,06,
0,00000054,false,Rx,0,8,00,00,FE,FF,7D,02,00,00,
0,00000055,false,Rx,0,8,10,27,00,00,00,00,00,00,
0,00000056,false,Rx,0,8,10,27,00,00,00,00,00,00,
719000,00000057,false,Rx,0,8,00,00,FE,FF,FE,FF,00,00,
719000,0000060D,false,Rx,0,8,0D,11,82,B6,09,20,70,00,
0,000002C4,false,Rx,0,8,03,00,00,00,64,02,00,00,
0,000002C5,false,Rx,0,8,00,00,00,00,00,00,00,00,
729000,000002C6,false,Rx,0,8,32,00,7C,01,00,00,00,00,
761000,00000625,false,Rx,0,8,25,00,59,86,01,54,5C,06,
818000,0000060D,false,Rx,0,8,0D,11,82,B6,09,20,70,00,
861000,00000625,false,Rx,0,8,25,00,59,86,01,54,5C,06,
918000,00000054,false,Rx,0,8,00,00,FE,FF,7D,02,00,00,
918000,00000055,false,Rx,0,8,10,27,00,00,00,00,00,00,
918000,00000056,false,Rx,0,8,10,27,00,00,00,00,00,00,
918000,00000057,false,Rx,0,8,00,00,FE,FF,FE,FF,00,00,
918000,0000060D,false,Rx,0,8,0D,11,82,B6,09,20,70,00,
0,000002C4,false,Rx,0,8,03,00,00,00,64,02,00,00,
0,000002C5,false,Rx,0,8,00,00,00,00,00,00,00,00,
948000,000002C6,false,Rx,0,8,32,00,7C,01,00,00,00,00,
962000,00000625,false,Rx,0,8,25,00,59,86,01,54,5C,06,
18000,0000060D,false,Rx,0,8,0D,11,82,B6,09,20,70,00,
61000,00000625,false,Rx,0,8,25,00,59,86,01,54,5C,06,
0,00000054,false,Rx,0,8,00,00,FE,FF,7D,02,00,00,
0,00000055,false,Rx,0,8,10,27,00,00,00,00,00,00,
119000,00000056,false,Rx,0,8,10,27,00,00,00,00,00,00,
119000,00000057,false,Rx,0,8,00,00,FE,FF,FE,FF,00,00,
119000,0000060D,false,Rx,0,8,0D,11,82,B6,09,20,70,00,
161000,00000625,false,Rx,0,8,25,00,59,86,01,54,5C,06,
168000,000002C4,false,Rx,0,8,03,00,00,00,64,02,00,00,
168000,000002C5,false,Rx,0,8,00,00,00,00,00,00,00,00,
168000,000002C6,false,Rx,0,8,32,00,7C,01,00,00,00,00,
218000,0000060D,false,Rx,0,8,0D,11,82,B6,09,20,70,00,
262000,00000625,false,Rx,0,8,25,00,59,86,01,54,5C,06,
318000,00000054,false,Rx,0,8,00,00,FE,FF,7D,02,00,00,
318000,00000055,false,Rx,0,8,10,27,00,00,00,00,00,00,
318000,00000056,false,Rx,0,8,10,27,00,00,00,00,00,00,
318000,00000057,false,Rx,0,8,00,00,FE,FF,FE,FF,00,00,
319000,0000060D,false,Rx,0,8,0D,11,82,B6,09,20,70,00,
361000,00000625,false,Rx,0,8,25,00,59,86,01,54,5C,06,
387000,000002C4,false,Rx,0,8,03,00,00,00,64,02,00,00,
387000,000002C5,false,Rx,0,8,00,00,00,00,00,00,00,00,
388000,000002C6,false,Rx,0,8,32,00,7C,01,00,00,00,00,
418000,0000060D,false,Rx,0,8,0D,11,82,B6,09,20,70,00,
461000,00000625,false,Rx,0,8,25,00,59,86,01,54,5C,06,
517000,00000054,false,Rx,0,8,00,00,FE,FF,7D,02,00,00,
518000,00000055,false,Rx,0,8,10,27,00,00,00,00,00,00,
518000,00000056,false,Rx,0,8,10,27,00,00,00,00,00,00,
0,00000057,false,Rx,0,8,00,00,FE,FF,FE,FF,00,00,
0,0000060D,false,Rx,0,8,0D,11,82,B6,09,20,70,00,
561000,00000625,false,Rx,0,8,25,00,59,86,01,54,5C,06,
0,000002C4,false,Rx,0,8,03,00,00,00,64,02,00,00,
0,000002C5,false,Rx,0,8,00,00,00,00,00,00,00,00,
608000,000002C6,false,Rx,0,8,32,00,7C,01,00,00,00,00,
618000,0000060D,false,Rx,0,8,0D,11,82,B6,09,20,70,00,
661000,00000625,false,Rx,0,8,25,00,59,86,01,54,5C,06,
717000,00000054,false,Rx,0,8,00,00,FE,FF,7D,02,00,00,
718000,00000055,false,Rx,0,8,10,27,00,00,00,00,00,00,
718000,00000056,false,Rx,0,8,10,27,00,00,00,00,00,00,
718000,00000057,false,Rx,0,8,00,00,FE,FF,FE,FF,00,00,
719000,0000060D,false,Rx,0,8,0D,11,82,B6,09,20,70,00,
761000,00000625,false,Rx,0,8,25,00,59,86,01,54,5C,06,
818000,0000060D,false,Rx,0,8,0D,11,82,B6,09,20,70,00,
827000,000002C4,false,Rx,0,8,03,00,00,00,64,02,00,00,
827000,000002C5,false,Rx,0,8,00,00,00,00,00,00,00,00,
828000,000002C6,false,Rx,0,8,32,00,7C,01,00,00,00,00,
861000,00000625,false,Rx,0,8,25,00,59,86,01,54,5C,06,
918000,00000054,false,Rx,0,8,00,00,FE,FF,7D,02,00,00,
918000,00000055,false,Rx,0,8,10,27,00,00,00,00,00,00,
0,00000056,false,Rx,0,8,10,27,00,00,00,00,00,00,
0,00000057,false,Rx,0,8,00,00,FE,FF,FE,FF,00,00,
919000,0000060D,false,Rx,0,8,0D,11,82,B6,09,20,70,00,
961000,00000625,false,Rx,0,8,25,00,59,86,01,54,5C,06,
17000,0000060D,false,Rx,0,8,0D,11,82,B6,09,20,70,00,
47000,000002C4,false,Rx,0,8,03,00,00,00,64,02,00,00,
47000,000002C5,false,Rx,0,8,00,00,00,00,00,00,00,00,
48000,000002C6,false,Rx,0,8,32,00,7C,01,00,00,00,00,
61000,00000625,false,Rx,0,8,25,00,59,86,01,54,5C,06,
117000,00000054,false,Rx,0,8,00,00,FE,FF,7D,02,00,00,
117000,00000055,false,Rx,0,8,10,27,00,00,00,00,00,00,
118000,00000056,false,Rx,0,8,10,27,00,00,00,00,00,00,
118000,00000057,false,Rx,0,8,00,00,FE,FF,FE,FF,00,00,
118000,0000060D,false,Rx,0,8,0D,11,82,B6,09,20,70,00,
162000,00000625,false,Rx,0,8,25,00,59,86,01,54,5C,06,
218000,0000060D,false,Rx,0,8,0D,11,82,B6,09,20,70,00,
262000,00000625,false,Rx,0,8,25,00,59,86,01,54,5C,06,
268000,000002C4,false,Rx,0,8,03,00,00,00,65,02,00,00,
0,000002C5,false,Rx,0,8,00,00,00,00,00,00,00,00,
0,000002C6,false,Rx,0,8,32,00,7C,01,00,00,00,00,
318000,00000054,false,Rx,0,8,00,00,FE,FF,7D,02,00,00,
318000,00000055,false,Rx,0,8,10,27,00,00,00,00,00,00,
318000,00000056,false,Rx,0,8,10,27,00,00,00,00,00,00,
319000,00000057,false,Rx,0,8,00,00,FE,FF,FE,FF,00,00,
319000,0000060D,false,Rx,0,8,0D,11,82,B6,09,20,70,00,
362000,00000625,false,Rx,0,8,25,00,59,86,01,54,5C,06,
419000,0000060D,false,Rx,0,8,0D,11,82,B6,09,20,70,00,
462000,00000625,false,Rx,0,8,25,00,59,86,01,54,5C,06,
0,000002C4,false,Rx,0,8,03,00,00,00,65,02,00,00,
0,000002C5,false,Rx,0,8,00,00,00,00,00,00,00,00,
487000,000002C6,false,Rx,0,8,32,00,7C,01,00,00,00,00,
517000,00000054,false,Rx,0,8,00,00,FE,FF,7D,02,00,00,
517000,00000055,false,Rx,0,8,10,27,00,00,00,00,00,00,
517000,00000056,false,Rx,0,8,10,27,00,00,00,00,00,00,
518000,00000057,false,Rx,0,8,00,00,FE,FF,FE,FF,00,00,
518000,0000060D,false,Rx,0,8,0D,11,82,B6,09,20,70,00,
561000,00000625,false,Rx,0,8,25,00,59,86,01,54,5C,06,
619000,0000060D,false,Rx,0,8,0D,11,82,B6,09,20,70,00,
662000,00000625,false,Rx,0,8,25,00,59,86,01,54,5C,06,
708000,000002C4,false,Rx,0,8,03,00,00,00,65,02,00,00,
708000,000002C5,false,Rx,0,8,00,00,00,00,00,00,00,00,
708000,000002C6,false,Rx,0,8,32,00,7C,01,00,00,00,00,
718000,00000054,false,Rx,0,8,00,00,FE,FF,7D,02,00,00,
718000,00000055,false,Rx,0,8,10,27,00,00,00,00,00,00,
0,00000056,false,Rx,0,8,10,27,00,00,00,00,00,00,
0,00000057,false,Rx,0,8,00,00,FE,FF,FE,FF,00,00,
719000,0000060D,false,Rx,0,8,0D,11,82,B6,09,20,70,00,
761000,00000625,false,Rx,0,8,25,00,59,86,01,54,5C,06,
818000,0000060D,false,Rx,0,8,0D,11,82,B6,09,20,70,00,
862000,00000625,false,Rx,0,8,25,00,59,86,01,54,5C,06,
0,00000054,false,Rx,0,8,00,00,FE,FF,7D,02,00,00,
0,00000055,false,Rx,0,8,10,27,00,00,00,00,00,00,
0,00000056,false,Rx,0,8,10,27,00,00,00,00,00,00,
919000,00000057,false,Rx,0,8,00,00,FE,FF,FE,FF,00,00,
920000,0000060D,false,Rx,0,8,0D,11,82,B6,09,20,70,00,
928000,000002C4,false,Rx,0,8,03,00,00,00,65,02,00,00,
928000,000002C5,false,Rx,0,8,00,00,00,00,00,00,00,00,
928000,000002C6,false,Rx,0,8,32,00,7C,01,00,00,00,00,
961000,00000625,false,Rx,0,8,25,00,59,86,01,54,5C,06,
17000,0000060D,false,Rx,0,8,0D,11,82,B6,09,20,70,00,
61000,00000625,false,Rx,0,8,25,00,59,86,01,54,5C,06,
0,00000054,false,Rx,0,8,00,00,FE,FF,7D,02,00,00,
0,00000055,false,Rx,0,8,10,27,00,00,00,00,00,00,
118000,00000056,false,Rx,0,8,10,27,00,00,00,00,00,00,
118000,00000057,false,Rx,0,8,00,00,FE,FF,FE,FF,00,00,
119000,0000060D,false,Rx,0,8,0D,11,82,B6,09,20,70,00,
0,000002C4,false,Rx,0,8,03,00,00,00,65,02,00,00,
0,000002C5,false,Rx,0,8,00,00,00,00,00,00,00,00,
148000,000002C6,false,Rx,0,8,32,00,7C,01,00,00,00,00,
162000,00000625,false,Rx,0,8,25,00,59,86,01,54,5C,06,
219000,0000060D,false,Rx,0,8,0D,11,82,B6,09,20,70,00,
261000,00000625,false,Rx,0,8,25,00,59,86,01,54,5C,06,
318000,00000054,false,Rx,0,8,00,00,FE,FF,7D,02,00,00,
318000,00000055,false,Rx,0,8,10,27,00,00,00,00,00,00,
319000,00000056,false,Rx,0,8,10,27,00,00,00,00,00,00,
319000,00000057,false,Rx,0,8,00,00,FE,FF,FE,FF,00,00,
319000,0000060D,false,Rx,0,8,0D,11,82,B6,09,20,70,00,
361000,00000625,false,Rx,0,8,25,00,59,86,01,54,5C,06,
0,000002C4,false,Rx,0,8,03,00,00,00,65,02,00,00,
0,000002C5,false,Rx,0,8,00,00,00,00,00,00,00,00,
368000,000002C6,false,Rx,0,8,32,00,7C,01,00,00,00,00,
418000,0000060D,false,Rx,0,8,0D,11,82,B6,09,20,70,00,
462000,00000625,false,Rx,0,8,25,00,59,86,01,54,5C,06,
518000,00000054,false,Rx,0,8,00,00,FE,FF,7D,02,00,00,
518000,00000055,false,Rx,0,8,10,27,00,00,00,00,00,00,
518000,00000056,false,Rx,0,8,10,27,00,00,00,00,00,00,
518000,00000057,false,Rx,0,8,00,00,FE,FF,FE,FF,00,00,
519000,0000060D,false,Rx,0,8,0D,11,82,B6,09,20,70,00,
561000,00000625,false,Rx,0,8,25,00,59,86,01,54,5C,06,
588000,000002C4,false,Rx,0,8,03,00,00,00,65,02,00,00,
588000,000002C5,false,Rx,0,8,00,00,00,00,00,00,00,00,
588000,000002C6,false,Rx,0,8,32,00,7C,01,00,00,00,00,
618000,0000060D,false,Rx,0,8,0D,11,82,B6,09,20,70,00,
661000,00000625,false,Rx,0,8,25,00,59,86,01,54,5C,06,
0,00000054,false,Rx,0,8,00,00,FE,FF,7D,02,00,00,
0,00000055,false,Rx,0,8,10,27,00,00,00,00,00,00,
718000,00000056,false,Rx,0,8,10,27,00,00,00,00,00,00,
719000,00000057,false,Rx,0,8,00,00,FE,FF,FE,FF,00,00,
719000,0000060D,false,Rx,0,8,0D,11,82,B6,09,20,70,00,
761000,00000625,false,Rx,0,8,25,00,59,86,01,54,5C,06,
